Freq.	V(Gain2.62)	V(Gain5.24)	V(Gain10.48)	V(20.96)	V(-2.62)	V(-5.24)	V(-10.48)
1.00000000000000e+000	(2.61982784272054e+000dB,1.79840842227882e+002°)	(5.23932303651521e+000dB,1.79681010092245e+002°)	(1.04787247298109e+001dB,1.79347488895293e+002°)	(2.09559548971707e+001dB,1.78519388710962e+002°)	(-2.61986350306572e+000dB,-1.79840865650161e+002°)	(-5.23936124877806e+000dB,-1.79681067724929e+002°)	(-1.04787738954801e+001dB,-1.79347519314582e+002°)
1.02329299228075e+000	(2.61981239281565e+000dB,1.79837136629368e+002°)	(5.23929235009522e+000dB,1.79673583104248e+002°)	(1.04786603533390e+001dB,1.79332296906240e+002°)	(2.09557705362728e+001dB,1.78484927149891e+002°)	(-2.61984805321765e+000dB,-1.79837160597215e+002°)	(-5.23933056656133e+000dB,-1.79673642078944e+002°)	(-1.04787095201356e+001dB,-1.79332328033928e+002°)
1.04712854805090e+000	(2.61979621519884e+000dB,1.79833344835208e+002°)	(5.23926021827042e+000dB,1.79665983351210e+002°)	(1.04785929446619e+001dB,1.79316751546939e+002°)	(2.09555774958621e+001dB,1.78449664755792e+002°)	(-2.61983187566035e+000dB,-1.79833369361331e+002°)	(-5.23929843913779e+000dB,-1.79666043699148e+002°)	(-1.04786421126390e+001dB,-1.79316783399516e+002°)
1.07151930523761e+000	(2.61977927561458e+000dB,1.79829464846142e+002°)	(5.23922657299830e+000dB,1.79658206825479e+002°)	(1.04785223610463e+001dB,1.79300844621833e+002°)	(2.09553753677675e+001dB,1.78413583009124e+002°)	(-2.61981493613838e+000dB,-1.79829489943544e+002°)	(-5.23926479847424e+000dB,-1.79658268578613e+002°)	(-1.04785715302595e+001dB,-1.79300877216173e+002°)
1.09647819614318e+000	(2.61976153819680e+000dB,1.79825494616946e+002°)	(5.23919134303701e+000dB,1.79650249427235e+002°)	(1.04784484530484e+001dB,1.79284567747001e+002°)	(2.09551637246664e+001dB,1.78376662968547e+002°)	(-2.61979719878584e+000dB,-1.79825520298932e+002°)	(-5.23922957333859e+000dB,-1.79650312618261e+002°)	(-1.04784976235558e+001dB,-1.79284601100367e+002°)
1.12201845430196e+000	(2.61974296539342e+000dB,1.79821432055405e+002°)	(5.23915445379540e+000dB,1.79642106962429e+002°)	(1.04783710641994e+001dB,1.79267912345951e+002°)	(2.09549421191899e+001dB,1.78338885261783e+002°)	(-2.61977862605078e+000dB,-1.79821458335593e+002°)	(-5.23919268914991e+000dB,-1.79642171624802e+002°)	(-1.04784202360621e+001dB,-1.79267946476011e+002°)
1.14815362149688e+000	(2.61972351788727e+000dB,1.79817275021269e+002°)	(5.23911582717585e+000dB,1.79633775140676e+002°)	(1.04782900306762e+001dB,1.79250869645329e+002°)	(2.09547100829877e+001dB,1.78300230076309e+002°)	(-2.61975917861615e+000dB,-1.79817301913591e+002°)	(-5.23915406782129e+000dB,-1.79633841308629e+002°)	(-1.04783392039578e+001dB,-1.79250904570159e+002°)
1.17489755493953e+000	(2.61970315451336e+000dB,1.79813021325181e+002°)	(5.23907538140999e+000dB,1.79625249573114e+002°)	(1.04782051809563e+001dB,1.79233430670542e+002°)	(2.09544671257484e+001dB,1.78260677149879e+002°)	(-2.61973881531713e+000dB,-1.79813048843895e+002°)	(-5.23911362759555e+000dB,-1.79625317281673e+002°)	(-1.04782543557237e+001dB,-1.79233466408639e+002°)
1.20226443461741e+000	(2.61968183217227e+000dB,1.79808668727584e+002°)	(5.23903303088655e+000dB,1.79616525770206e+002°)	(1.04781163354576e+001dB,1.79215586241290e+002°)	(2.09542127341757e+001dB,1.78220205760895e+002°)	(-2.61971749305446e+000dB,-1.79808696887280e+002°)	(-5.23907128287315e+000dB,-1.79616595055211e+002°)	(-1.04781655117807e+001dB,-1.79215622811581e+002°)
1.23026877081238e+000	(2.61965950573957e+000dB,1.79804214937615e+002°)	(5.23898868597135e+000dB,1.79607599139513e+002°)	(1.04780233061601e+001dB,1.79197326967017e+002°)	(2.09539463709169e+001dB,1.78178794718598e+002°)	(-2.61969516670387e+000dB,-1.79804243753222e+002°)	(-5.23902694403220e+000dB,-1.79607670037634e+002°)	(-1.04780724841122e+001dB,-1.79197364388867e+002°)
1.25892541179417e+000	(2.61963612797095e+000dB,1.79799657611964e+002°)	(5.23894225281882e+000dB,1.79598464983412e+002°)	(1.04779258962117e+001dB,1.79178643242264e+002°)	(2.09536674734419e+001dB,1.78136422353108e+002°)	(-2.61967178902123e+000dB,-1.79799687098760e+002°)	(-5.23898051723997e+000dB,-1.79598537532171e+002°)	(-1.04779750758694e+001dB,-1.79178681535490e+002°)
1.28824955169313e+000	(2.61961164940297e+000dB,1.79794994353723e+002°)	(5.23889363317476e+000dB,1.79589118496776e+002°)	(1.04778238995138e+001dB,1.79159525241942e+002°)	(2.09533754528709e+001dB,1.78093066505285e+002°)	(-2.61964731054328e+000dB,-1.79795024527341e+002°)	(-5.23893190425573e+000dB,-1.79589192734564e+002°)	(-1.04778730809574e+001dB,-1.79159564426820e+002°)
1.31825673855641e+000	(2.61958601824918e+000dB,1.79790222711205e+002°)	(5.23884272416996e+000dB,1.79579554764604e+002°)	(1.04777171002890e+001dB,1.79139962916504e+002°)	(2.09530696927482e+001dB,1.78048704516440e+002°)	(-2.61962167948376e+000dB,-1.79790253587642e+002°)	(-5.23888100222437e+000dB,-1.79579630730703e+002°)	(-1.04777662836025e+001dB,-1.79140003013780e+002°)
1.34896288259165e+000	(2.61955918029147e+000dB,1.79785340176745e+002°)	(5.23878941810420e+000dB,1.79569768759611e+002°)	(1.04776052726282e+001dB,1.79119945987032e+002°)	(2.09527495477595e+001dB,1.78003313217881e+002°)	(-2.61959484162474e+000dB,-1.79785371772370e+002°)	(-5.23882770346041e+000dB,-1.79569846494214e+002°)	(-1.04776544578996e+001dB,-1.79119987017935e+002°)
1.38038426460288e+000	(2.61953107876626e+000dB,1.79780344185472e+002°)	(5.23873360222017e+000dB,1.79559755339769e+002°)	(1.04774881800165e+001dB,1.79099463940232e+002°)	(2.09524143423905e+001dB,1.77956868920292e+002°)	(-2.61956674020288e+000dB,-1.79780376517037e+002°)	(-5.23877189522201e+000dB,-1.79559834884000e+002°)	(-1.04775373673380e+001dB,-1.79099505926484e+002°)
1.41253754462275e+000	(2.61950165424554e+000dB,1.79775232114070e+002°)	(5.23867515846699e+000dB,1.79549509245799e+002°)	(1.04773655748379e+001dB,1.79078506023335e+002°)	(2.09520633695242e+001dB,1.77909347402964e+002°)	(-2.61953731579037e+000dB,-1.79775265198716e+002°)	(-5.23871345947445e+000dB,-1.79549590641736e+002°)	(-1.04774147643059e+001dB,-1.79078548987161e+002°)
1.44543977074593e+000	(2.61947084451229e+000dB,1.79770001279503e+002°)	(5.23861396325267e+000dB,1.79539025098625e+002°)	(1.04772371978555e+001dB,1.79057061238899e+002°)	(2.09516958889735e+001dB,1.77860723902865e+002°)	(-2.61950650617042e+000dB,-1.79770035134769e+002°)	(-5.23865227264268e+000dB,-1.79539108389319e+002°)	(-1.04772863895710e+001dB,-1.79057105203041e+002°)
1.47910838816821e+000	(2.61943858443019e+000dB,1.79764648937723e+002°)	(5.23854988718515e+000dB,1.79528297396773e+002°)	(1.04771027776697e+001dB,1.79035118339530e+002°)	(2.09513111259479e+001dB,1.77810973103557e+002°)	(-2.61947424620695e+000dB,-1.79764683581559e+002°)	(-5.23858820535237e+000dB,-1.79528382626272e+002°)	(-1.04771519717384e+001dB,-1.79035163327255e+002°)
1.51356124843621e+000	(2.61940480580729e+000dB,1.79759172282360e+002°)	(5.23848279480133e+000dB,1.79517320513725e+002°)	(1.04769620301492e+001dB,1.79012665822496e+002°)	(2.09509082694488e+001dB,1.77760069123971e+002°)	(-2.61944046770827e+000dB,-1.79759207733132e+002°)	(-5.23852112215896e+000dB,-1.79517407727100e+002°)	(-1.04770112266818e+001dB,-1.79012711857615e+002°)
1.54881661891248e+000	(2.61936943725333e+000dB,1.79753568443377e+002°)	(5.23841254428351e+000dB,1.79506088695232e+002°)	(1.04768146578375e+001dB,1.78989691924258e+002°)	(2.09504864705933e+001dB,1.77707985507030e+002°)	(-2.61940509928437e+000dB,-1.79753604719879e+002°)	(-5.23845088126421e+000dB,-1.79506177938594e+002°)	(-1.04768638569499e+001dB,-1.78989739031131e+002°)
1.58489319246111e+000	(2.61933240403052e+000dB,1.79747834485712e+002°)	(5.23833898716279e+000dB,1.79494596056572e+002°)	(1.04766603493305e+001dB,1.78966184614900e+002°)	(2.09500448408604e+001dB,1.77654695208137e+002°)	(-2.61936806619774e+000dB,-1.79747871607176e+002°)	(-5.23837733421955e+000dB,-1.79494687377101e+002°)	(-1.04767095511441e+001dB,-1.78966232818451e+002°)
1.62181009735893e+000	(2.61929362789743e+000dB,1.79741967407894e+002°)	(5.23826196800873e+000dB,1.79482836579768e+002°)	(1.04764987786267e+001dB,1.78942131592466e+002°)	(2.09495824502589e+001dB,1.77600170583526e+002°)	(-2.61932929020724e+000dB,-1.79742005394000e+002°)	(-5.23830032561584e+000dB,-1.79482930025733e+002°)	(-1.04765479832684e+001dB,-1.78942180918200e+002°)
1.65958690743756e+000	(2.61925302694563e+000dB,1.79735964140632e+002°)	(5.23818132410469e+000dB,1.79470804110750e+002°)	(1.04763296044462e+001dB,1.78917520277208e+002°)	(2.09490983254114e+001dB,1.77544383378493e+002°)	(-2.61928868940473e+000dB,-1.79736003011519e+002°)	(-5.23821969275873e+000dB,-1.79470899731539e+002°)	(-1.04763788120490e+001dB,-1.78917570751220e+002°)
1.69824365246174e+000	(2.61921051542883e+000dB,1.79729821545390e+002°)	(5.23809688510816e+000dB,1.79458492356482e+002°)	(1.04761524695191e+001dB,1.78892337805739e+002°)	(2.09485914475521e+001dB,1.77487304715495e+002°)	(-2.61924617804425e+000dB,-1.79729861321665e+002°)	(-5.23813526532905e+000dB,-1.79458590202623e+002°)	(-1.04762016802223e+001dB,-1.78892389454727e+002°)
1.73780082874937e+000	(2.61916600358419e+000dB,1.79723536412927e+002°)	(5.23800847269552e+000dB,1.79445894882033e+002°)	(1.04759669998413e+001dB,1.78866571025090e+002°)	(2.09480607504343e+001dB,1.77428905082144e+002°)	(-2.61920166636328e+000dB,-1.79723577115676e+002°)	(-5.23804686502764e+000dB,-1.79445995005223e+002°)	(-1.04760162137905e+001dB,-1.78866623876372e+002°)
1.77827941003892e+000	(2.61911939744537e+000dB,1.79717105461827e+002°)	(5.23791590019039e+000dB,1.79433005107609e+002°)	(1.04757728038951e+001dB,1.78840206486683e+002°)	(2.09475051181439e+001dB,1.77369154319095e+002°)	(-2.61915506039583e+000dB,-1.79717147112628e+002°)	(-5.23795430520369e+000dB,-1.79433107560738e+002°)	(-1.04758220212430e+001dB,-1.78840260568209e+002°)
1.81970085860998e+000	(2.61907059864702e+000dB,1.79710525336998e+002°)	(5.23781897217494e+000dB,1.79419816305530e+002°)	(1.04755694718354e+001dB,1.78813230440208e+002°)	(2.09469233828142e+001dB,1.77308021607840e+002°)	(-2.61910626177690e+000dB,-1.79710567957931e+002°)	(-5.23785739046614e+000dB,-1.79419921142712e+002°)	(-1.04756186927417e+001dB,-1.78813285780577e+002°)
1.86208713666287e+000	(2.61901950422026e+000dB,1.79703792608150e+002°)	(5.23771748408330e+000dB,1.79406321597177e+002°)	(1.04753565746372e+001dB,1.78785628827419e+002°)	(2.09463143222390e+001dB,1.77245475458420e+002°)	(-2.61905516753800e+000dB,-1.79703836221811e+002°)	(-5.23775591627716e+000dB,-1.79406428873770e+002°)	(-1.04754057992691e+001dB,-1.78785685455889e+002°)
1.90546071796325e+000	(2.61896600637888e+000dB,1.79696903768261e+002°)	(5.23761122177638e+000dB,1.79392513949875e+002°)	(1.04751336632054e+001dB,1.78757387275831e+002°)	(2.09456766573783e+001dB,1.77181483697061e+002°)	(-2.61900166989332e+000dB,-1.79696948397769e+002°)	(-5.23764966852700e+000dB,-1.79392623722520e+002°)	(-1.04751828917379e+001dB,-1.78757445222340e+002°)
1.94984459975804e+000	(2.61890999229568e+000dB,1.79689855232005e+002°)	(5.23749996109720e+000dB,1.79378386173755e+002°)	(1.04749002674425e+001dB,1.78728491092349e+002°)	(2.09450090497539e+001dB,1.77116013453757e+002°)	(-2.61894565601606e+000dB,-1.79689900901020e+002°)	(-5.23753842308942e+000dB,-1.79378498500396e+002°)	(-1.04749495000589e+001dB,-1.78728550387525e+002°)
1.99526231496888e+000	(2.61885134386864e+000dB,1.79682643334177e+002°)	(5.23738346740592e+000dB,1.79363930918553e+002°)	(1.04746558952750e+001dB,1.78698925256798e+002°)	(2.09443100987281e+001dB,1.77049031149809e+002°)	(-2.61888700780464e+000dB,-1.79682690066908e+002°)	(-5.23742194535671e+000dB,-1.79364045858470e+002°)	(-1.04747051321672e+001dB,-1.78698985931979e+002°)
2.04173794466953e+000	(2.61878993747641e+000dB,1.79675264328084e+002°)	(5.23726149509355e+000dB,1.79349140670383e+002°)	(1.04744000316351e+001dB,1.78668674415389e+002°)	(2.09435783386624e+001dB,1.76980502485331e+002°)	(-2.61882560163816e+000dB,-1.79675312149305e+002°)	(-5.23729998975358e+000dB,-1.79349258284221e+002°)	(-1.04744492730038e+001dB,-1.78668736502637e+002°)
2.08929613085404e+000	(2.61872564372267e+000dB,1.79667714383929e+002°)	(5.23713378707365e+000dB,1.79334007748459e+002°)	(1.04741321373948e+001dB,1.78637722874096e+002°)	(2.09428122359510e+001dB,1.76910392426753e+002°)	(-2.61876130812078e+000dB,-1.79667763318989e+002°)	(-5.23717229922879e+000dB,-1.79334128098263e+002°)	(-1.04741813834503e+001dB,-1.78637786406213e+002°)
2.13796208950223e+000	(2.61865832716888e+000dB,1.79659989587164e+002°)	(5.23700007425069e+000dB,1.79318524301793e+002°)	(1.04738516482540e+001dB,1.78606054591968e+002°)	(2.09420101859229e+001dB,1.76838665194326e+002°)	(-2.61869399181446e+000dB,-1.79660039662005e+002°)	(-5.23703860472371e+000dB,-1.79318647451033e+002°)	(-1.04739008992162e+001dB,-1.78606119602515e+002°)
2.18776162394955e+000	(2.61858784605491e+000dB,1.79652085936838e+002°)	(5.23686007496444e+000dB,1.79302682305837e+002°)	(1.04735579735756e+001dB,1.78573653174369e+002°)	(2.09411705096088e+001dB,1.76765284249664e+002°)	(-2.61862351095958e+000dB,-1.79652137178004e+002°)	(-5.23689862461672e+000dB,-1.79302808319444e+002°)	(-1.04736072296750e+001dB,-1.78573719697681e+002°)
2.23872113856834e+000	(2.61851405200700e+000dB,1.79643999343921e+002°)	(5.23671349440907e+000dB,1.79286473559110e+002°)	(1.04732504951699e+001dB,1.78540501866156e+002°)	(2.09402914503662e+001dB,1.76690212283328e+002°)	(-2.61854971718292e+000dB,-1.79644051778574e+002°)	(-5.23675206414240e+000dB,-1.79286602503507e+002°)	(-1.04732997566474e+001dB,-1.78540569937362e+002°)
2.29086765276777e+000	(2.61843678973250e+000dB,1.79635725629616e+002°)	(5.23656002402596e+000dB,1.79269889679781e+002°)	(1.04729285660226e+001dB,1.78506583544798e+002°)	(2.09393711703577e+001dB,1.76613411202495e+002°)	(-2.61847245519243e+000dB,-1.79635779285551e+002°)	(-5.23659861478441e+000dB,-1.79270021622919e+002°)	(-1.04729778331306e+001dB,-1.78506653199836e+002°)
2.34422881531992e+000	(2.61835589670097e+000dB,1.79627260523653e+002°)	(5.23639934086906e+000dB,1.79252922102226e+002°)	(1.04725915089666e+001dB,1.78471880713436e+002°)	(2.09384077468762e+001dB,1.76534842118731e+002°)	(-2.61839156245824e+000dB,-1.79627315429311e+002°)	(-5.23643795364101e+000dB,-1.79253057113613e+002°)	(-1.04726407819693e+001dB,-1.78471951989074e+002°)
2.39883291901949e+000	(2.61827120281074e+000dB,1.79618599662578e+002°)	(5.23623110694172e+000dB,1.79235562073557e+002°)	(1.04722386152932e+001dB,1.78436375493902e+002°)	(2.09373991685116e+001dB,1.76454465335884e+002°)	(-2.61830686887930e+000dB,-1.79618655847064e+002°)	(-5.23626974276185e+000dB,-1.79235700224300e+002°)	(-1.04722878944670e+001dB,-1.78436448427755e+002°)
2.45470891568503e+000	(2.61818253004060e+000dB,1.79609738588026e+002°)	(5.23605496850359e+000dB,1.79217800650132e+002°)	(1.04718691433015e+001dB,1.78400049619696e+002°)	(2.09363433311530e+001dB,1.76372240338159e+002°)	(-2.61821819643506e+000dB,-1.79609796081121e+002°)	(-5.23609362845508e+000dB,-1.79217942012964e+002°)	(-1.04719184289359e+001dB,-1.78400124250246e+002°)
2.51188643150958e+000	(2.61808969208593e+000dB,1.79600672744985e+002°)	(5.23587055534641e+000dB,1.79199628694036e+002°)	(1.04714823167827e+001dB,1.78362884428928e+002°)	(2.09352380338186e+001dB,1.76288125778373e+002°)	(-2.61812535882160e+000dB,-1.79600731577162e+002°)	(-5.23590924056323e+000dB,-1.79199773343359e+002°)	(-1.04715316091805e+001dB,-1.78362960795542e+002°)
2.57039578276886e+000	(2.61799249397848e+000dB,1.79591397480054e+002°)	(5.23567748003749e+000dB,1.79181036869552e+002°)	(1.04710773234364e+001dB,1.78324860857235e+002°)	(2.09340809743093e+001dB,1.76202079466456e+002°)	(-2.61802816107136e+000dB,-1.79591457682499e+002°)	(-5.23571619170670e+000dB,-1.79181184881471e+002°)	(-1.04711266229145e+001dB,-1.78324939000186e+002°)
2.63026799189538e+000	(2.61789073168927e+000dB,1.79581908039700e+002°)	(5.23547533712924e+000dB,1.79162015639622e+002°)	(1.04706533132168e+001dB,1.78285959430684e+002°)	(2.09328697446772e+001dB,1.76114058358220e+002°)	(-2.61792639915611e+000dB,-1.79581969644321e+002°)	(-5.23551407649349e+000dB,-1.79162167091982e+002°)	(-1.04707026201071e+001dB,-1.78286039391174e+002°)
2.69153480392691e+000	(2.61778419171378e+000dB,1.79572199568504e+002°)	(5.23526370233363e+000dB,1.79142555262290e+002°)	(1.04702093966054e+001dB,1.78246160258670e+002°)	(2.09316018265032e+001dB,1.76024018544443e+002°)	(-2.61781985957212e+000dB,-1.79572262607955e+002°)	(-5.23530247069377e+000dB,-1.79142710234716e+002°)	(-1.04702587112549e+001dB,-1.78246242078847e+002°)
2.75422870333816e+000	(2.61767265063884e+000dB,1.79562267107417e+002°)	(5.23504213165984e+000dB,1.79122645787151e+002°)	(1.04697446428066e+001dB,1.78205443026818e+002°)	(2.09302745859773e+001dB,1.75931915240323e+002°)	(-2.61770831890705e+000dB,-1.79562331615110e+002°)	(-5.23508093037760e+000dB,-1.79122804361085e+002°)	(-1.04697939655788e+001dB,-1.78205526749797e+002°)
2.81838293126445e+000	(2.61755587469033e+000dB,1.79552105592010e+002°)	(5.23481016051386e+000dB,1.79102277051801e+002°)	(1.04692580778647e+001dB,1.78163786989900e+002°)	(2.09288852687730e+001dB,1.75837702775329e+002°)	(-2.61759154338761e+000dB,-1.79552171602135e+002°)	(-5.23484899101468e+000dB,-1.79102439310545e+002°)	(-1.04693074091399e+001dB,-1.78163872659786e+002°)
2.88403150312660e+000	(2.61743361926100e+000dB,1.79541709850737e+002°)	(5.23456730275824e+000dB,1.79081438678293e+002°)	(1.04687486826971e+001dB,1.78121170964784e+002°)	(2.09274309947111e+001dB,1.75741334583534e+002°)	(-2.61746928840746e+000dB,-1.79541777398279e+002°)	(-5.23460616653424e+000dB,-1.79081604707045e+002°)	(-1.04687980228732e+001dB,-1.78121258626696e+002°)
2.95120922666638e+000	(2.61730562841751e+000dB,1.79531074603203e+002°)	(5.23431304973050e+000dB,1.79060120069608e+002°)	(1.04682153910416e+001dB,1.78077573323430e+002°)	(2.09259087522024e+001dB,1.75642763194456e+002°)	(-2.61734129803421e+000dB,-1.79531143723962e+002°)	(-5.23435194834355e+000dB,-1.79060289955508e+002°)	(-1.04682647405351e+001dB,-1.78077663023520e+002°)
3.01995172040201e+000	(2.61717163438601e+000dB,1.79520194458446e+002°)	(5.23404686921846e+000dB,1.79038310406155e+002°)	(1.04676570873140e+001dB,1.78032971985938e+002°)	(2.09243153924655e+001dB,1.75541940224486e+002°)	(-2.61720730449496e+000dB,-1.79520265189056e+002°)	(-5.23408580430344e+000dB,-1.79038484238321e+002°)	(-1.04677064465606e+001dB,-1.78033063771417e+002°)
3.09029543251359e+000	(2.61703135701524e+000dB,1.79509063913239e+002°)	(5.23376820439083e+000dB,1.79015998642287e+002°)	(1.04670726043727e+001dB,1.77987344413681e+002°)	(2.09226476235093e+001dB,1.75438816368968e+002°)	(-2.61706702763950e+000dB,-1.79509136291186e+002°)	(-5.23380717765901e+000dB,-1.79016176511865e+002°)	(-1.04671219738285e+001dB,-1.77987438332838e+002°)
3.16227766016837e+000	(2.61688450321639e+000dB,1.79497677350408e+002°)	(5.23347647268125e+000dB,1.78993173502871e+002°)	(1.04664607211858e+001dB,1.77940667602522e+002°)	(2.09209020038742e+001dB,1.75333341394992e+002°)	(-2.61692017438008e+000dB,-1.79497751414049e+002°)	(-5.23351548592381e+000dB,-1.78993355503073e+002°)	(-1.04665101013278e+001dB,-1.77940763704753e+002°)
3.23593656929628e+000	(2.61673076637869e+000dB,1.79486029037181e+002°)	(5.23317106462391e+000dB,1.78969823479892e+002°)	(1.04658201603980e+001dB,1.77892918076154e+002°)	(2.09190749361250e+001dB,1.75225464134987e+002°)	(-2.61676643810705e+000dB,-1.79486104825766e+002°)	(-5.23321011971566e+000dB,-1.78970009706043e+002°)	(-1.04658695517254e+001dB,-1.77893016411984e+002°)
3.31131121482591e+000	(2.61656982575997e+000dB,1.79474113123563e+002°)	(5.23285134263897e+000dB,1.78945936829121e+002°)	(1.04651495857929e+001dB,1.77844071879568e+002°)	(2.09171626600861e+001dB,1.75115132481181e+002°)	(-2.61660549807943e+000dB,-1.79474190677256e+002°)	(-5.23289044154217e+000dB,-1.78946127378703e+002°)	(-1.04651989888281e+001dB,-1.77844172500675e+002°)
